T0564 000:085.678   SEGGER J-Link V7.22b Log File
T0564 000:086.270   DLL Compiled: Jun 17 2021 17:22:49
T0564 000:086.282   Logging started @ 2022-03-13 23:44
T0564 000:086.293 - 86.299ms
T0564 000:086.453 JLINK_SetWarnOutHandler(...)
T0564 000:086.565 - 0.117ms
T0564 000:086.578 JLINK_OpenEx(...)
T0564 000:090.182   Firmware: J-Link V11 compiled Jun 29 2021 16:12:24
T0564 000:090.402   Firmware: J-Link V11 compiled Jun 29 2021 16:12:24
T0564 000:091.206   Decompressing FW timestamp took 324 us
T0564 000:093.651   Hardware: V11.00
T0564 000:093.678   S/N: 50120677
T0564 000:093.701   OEM: SEGGER
T0564 000:093.719   Feature(s): GDB, JFlash, FlashDL, RDI, FlashBP
T0564 000:095.216   TELNET listener socket opened on port 19021
T0564 000:095.481   WEBSRV Starting webserver
T0564 000:095.620   WEBSRV Webserver running on local port 19080
T0564 000:095.643 - 9.071ms returns "O.K."
T0564 000:095.666 JLINK_GetEmuCaps()
T0564 000:095.678 - 0.018ms returns 0xB9FF7BBF
T0564 000:095.808 JLINK_TIF_GetAvailable(...)
T0564 000:095.910 - 0.110ms
T0564 000:095.927 JLINK_SetErrorOutHandler(...)
T0564 000:095.939 - 0.019ms
T0564 000:096.080 JLINK_ExecCommand("ProjectFile = "D:\Work\MCTech\Cloth_Dryer_LED_Cert\FW\Front\JLinkSettings.ini"", ...). 
T0564 000:134.540   Ref file found at: C:\Keil_v5\ARM\Segger\JLinkDevices.ref
T0564 000:134.905   XML referenced by ref file: C:\Program Files\SEGGER\JLink\JLinkDevices.xml
T0564 000:136.037   C:\Program Files\SEGGER\JLink\JLinkDevices.xml evaluated successfully.
T0564 000:250.063   Device "STM32F030R8" selected.
T0564 000:250.571 - 154.502ms returns 0x00
T0564 000:252.025 JLINK_ExecCommand("Device = STM32F030R8Tx", ...). 
T0564 000:253.599   Device "STM32F030R8" selected.
T0564 000:253.999 - 1.961ms returns 0x00
T0564 000:254.024 JLINK_GetHardwareVersion()
T0564 000:254.040 - 0.023ms returns 110000
T0564 000:254.055 JLINK_GetDLLVersion()
T0564 000:254.068 - 0.019ms returns 72202
T0564 000:254.081 JLINK_GetOEMString(...)
T0564 000:254.095 JLINK_GetFirmwareString(...)
T0564 000:254.112 - 0.030ms
T0564 000:266.724 JLINK_GetDLLVersion()
T0564 000:266.760 - 0.043ms returns 72202
T0564 000:266.775 JLINK_GetCompileDateTime()
T0564 000:266.788 - 0.019ms
T0564 000:270.953 JLINK_GetFirmwareString(...)
T0564 000:270.997 - 0.050ms
T0564 000:274.001 JLINK_GetHardwareVersion()
T0564 000:274.027 - 0.032ms returns 110000
T0564 000:277.085 JLINK_GetSN()
T0564 000:277.110 - 0.030ms returns 50120677
T0564 000:279.823 JLINK_GetOEMString(...)
T0564 000:285.160 JLINK_TIF_Select(JLINKARM_TIF_SWD)
T0564 000:285.798 - 0.646ms returns 0x00
T0564 000:285.815 JLINK_HasError()
T0564 000:285.843 JLINK_SetSpeed(5000)
T0564 000:285.945 - 0.110ms
T0564 000:285.962 JLINK_GetId()
T0564 000:288.963   InitTarget() start
T0564 000:288.991    J-Link Script File: Executing InitTarget()
T0564 000:301.086   InitTarget() end
T0564 000:304.227   Found SW-DP with ID 0x0BB11477
T0564 000:308.461   DPIDR: 0x0BB11477
T0564 000:311.249   Scanning AP map to find all available APs
T0564 000:314.344   AP[1]: Stopped AP scan as end of AP map has been reached
T0564 000:318.635   AP[0]: AHB-AP (IDR: 0x04770021)
T0564 000:322.618   Iterating through AP map to find AHB-AP to use
T0564 000:327.474   AP[0]: Core found
T0564 000:330.799   AP[0]: AHB-AP ROM base: 0xE00FF000
T0564 000:333.826   CPUID register: 0x410CC200. Implementer code: 0x41 (ARM)
T0564 000:337.237   Found Cortex-M0 r0p0, Little endian.
T0564 000:438.572   -- Max. mem block: 0x000044F0
T0564 000:438.709   CPU_ReadMem(4 bytes @ 0xE000EDF0)
T0564 000:439.030   CPU_ReadMem(4 bytes @ 0xE0002000)
T0564 000:442.197   FPUnit: 4 code (BP) slots and 0 literal slots
T0564 000:442.230   CPU_ReadMem(4 bytes @ 0xE000EDFC)
T0564 000:442.388   CPU_WriteMem(4 bytes @ 0xE000EDFC)
T0564 000:442.550   CPU_ReadMem(4 bytes @ 0xE0001000)
T0564 000:442.773   CPU_WriteMem(4 bytes @ 0xE0001000)
T0564 000:445.824   CoreSight components:
T0564 000:448.559   ROMTbl[0] @ E00FF000
T0564 000:448.587   CPU_ReadMem(64 bytes @ 0xE00FF000)
T0564 000:448.932   CPU_ReadMem(32 bytes @ 0xE000EFE0)
T0564 000:451.884   ROMTbl[0][0]: E000E000, CID: B105E00D, PID: 000BB008 SCS
T0564 000:451.912   CPU_ReadMem(32 bytes @ 0xE0001FE0)
T0564 000:454.781   ROMTbl[0][1]: E0001000, CID: B105E00D, PID: 000BB00A DWT
T0564 000:454.809   CPU_ReadMem(32 bytes @ 0xE0002FE0)
T0564 000:457.767   ROMTbl[0][2]: E0002000, CID: B105E00D, PID: 000BB00B FPB
T0564 000:458.083 - 172.130ms returns 0x0BB11477
T0564 000:458.104 JLINK_GetDLLVersion()
T0564 000:458.116 - 0.018ms returns 72202
T0564 000:458.130 JLINK_CORE_GetFound()
T0564 000:458.142 - 0.017ms returns 0x60000FF
T0564 000:458.156 JLINK_GetDebugInfo(0x100 = JLINKARM_ROM_TABLE_ADDR_INDEX)
T0564 000:458.169   Value=0xE00FF000
T0564 000:458.189 - 0.039ms returns 0
T0564 000:460.991 JLINK_GetDebugInfo(0x100 = JLINKARM_ROM_TABLE_ADDR_INDEX)
T0564 000:461.012   Value=0xE00FF000
T0564 000:461.029 - 0.044ms returns 0
T0564 000:461.042 JLINK_GetDebugInfo(0x101 = JLINKARM_DEBUG_INFO_ETM_ADDR_INDEX)
T0564 000:461.054   Value=0x00000000
T0564 000:461.071 - 0.035ms returns 0
T0564 000:461.093 JLINK_ReadMemEx(0xE0041FF0, 0x10 Bytes, Flags = 0x02000004)
T0564 000:461.125   CPU_ReadMem(16 bytes @ 0xE0041FF0)
T0564 000:461.330   Data:  00 00 00 00 00 00 00 00 00 00 00 00 00 00 00 00
T0564 000:461.349 - 0.262ms returns 16 (0x10)
T0564 000:461.362 JLINK_GetDebugInfo(0x102 = JLINKARM_DEBUG_INFO_MTB_ADDR_INDEX)
T0564 000:461.374   Value=0x00000000
T0564 000:461.392 - 0.035ms returns 0
T0564 000:461.404 JLINK_GetDebugInfo(0x103 = JLINKARM_DEBUG_INFO_TPIU_ADDR_INDEX)
T0564 000:461.416   Value=0x00000000
T0564 000:461.433 - 0.035ms returns 0
T0564 000:461.446 JLINK_ReadMemEx(0xE0040FF0, 0x10 Bytes, Flags = 0x02000004)
T0564 000:461.461   CPU_ReadMem(16 bytes @ 0xE0040FF0)
T0564 000:461.649   Data:  00 00 00 00 00 00 00 00 00 00 00 00 00 00 00 00
T0564 000:461.667 - 0.227ms returns 16 (0x10)
T0564 000:461.681 JLINK_GetDebugInfo(0x104 = JLINKARM_DEBUG_INFO_ITM_ADDR_INDEX)
T0564 000:461.693   Value=0xE0000000
T0564 000:461.710 - 0.034ms returns 0
T0564 000:461.722 JLINK_GetDebugInfo(0x105 = JLINKARM_DEBUG_INFO_DWT_ADDR_INDEX)
T0564 000:461.734   Value=0xE0001000
T0564 000:461.751 - 0.034ms returns 0
T0564 000:461.764 JLINK_GetDebugInfo(0x106 = JLINKARM_DEBUG_INFO_FPB_ADDR_INDEX)
T0564 000:461.776   Value=0xE0002000
T0564 000:461.793 - 0.035ms returns 0
T0564 000:461.805 JLINK_GetDebugInfo(0x107 = JLINKARM_DEBUG_INFO_NVIC_ADDR_INDEX)
T0564 000:461.817   Value=0xE000E000
T0564 000:461.834 - 0.034ms returns 0
T0564 000:461.847 JLINK_GetDebugInfo(0x10C = JLINKARM_DEBUG_INFO_DBG_ADDR_INDEX)
T0564 000:461.859   Value=0xE000EDF0
T0564 000:461.876 - 0.034ms returns 0
T0564 000:461.888 JLINK_GetDebugInfo(0x01 = Unknown)
T0564 000:461.900   Value=0x00000000
T0564 000:461.917 - 0.034ms returns 0
T0564 000:461.930 JLINK_ReadMemU32(0xE000ED00, 0x1 Items)
T0564 000:461.944   CPU_ReadMem(4 bytes @ 0xE000ED00)
T0564 000:462.097   Data:  00 C2 0C 41
T0564 000:462.122   Debug reg: CPUID
T0564 000:462.139 - 0.215ms returns 1 (0x1)
T0564 000:462.153 JLINK_GetDebugInfo(0x10F = JLINKARM_DEBUG_INFO_HAS_CORTEX_M_SECURITY_EXT_INDEX)
T0564 000:462.166   Value=0x00000000
T0564 000:462.183 - 0.035ms returns 0
T0564 000:462.196 JLINK_HasError()
T0564 000:462.209 JLINK_SetResetType(JLINKARM_CM3_RESET_TYPE_NORMAL)
T0564 000:462.221 - 0.019ms returns JLINKARM_CM3_RESET_TYPE_NORMAL
T0564 000:462.235 JLINK_Reset()
T0564 000:462.263   CPU is running
T0564 000:462.282   CPU_WriteMem(4 bytes @ 0xE000EDF0)
T0564 000:462.448   CPU is running
T0564 000:462.467   CPU_WriteMem(4 bytes @ 0xE000EDFC)
T0564 000:465.313   Reset: Halt core after reset via DEMCR.VC_CORERESET.
T0564 000:468.320   Reset: Reset device via AIRCR.SYSRESETREQ.
T0564 000:468.347   CPU is running
T0564 000:468.366   CPU_WriteMem(4 bytes @ 0xE000ED0C)
T0564 000:520.603   CPU_ReadMem(4 bytes @ 0xE000EDF0)
T0564 000:520.920   CPU_ReadMem(4 bytes @ 0xE000EDF0)
T0564 000:521.159   CPU is running
T0564 000:521.178   CPU_WriteMem(4 bytes @ 0xE000EDF0)
T0564 000:521.421   CPU is running
T0564 000:521.443   CPU_WriteMem(4 bytes @ 0xE000EDFC)
T0564 000:527.291   CPU_ReadMem(4 bytes @ 0xE000EDF0)
T0564 000:529.134   CPU_WriteMem(4 bytes @ 0xE0002000)
T0564 000:529.313   CPU_ReadMem(4 bytes @ 0xE000EDFC)
T0564 000:529.534   CPU_ReadMem(4 bytes @ 0xE0001000)
T0564 000:529.784   CPU_WriteMem(4 bytes @ 0xE0001000)
T0564 000:530.047 - 67.818ms
T0564 000:530.065 JLINK_Halt()
T0564 000:530.077 - 0.018ms returns 0x00
T0564 000:530.090 JLINK_ReadMemU32(0xE000EDF0, 0x1 Items)
T0564 000:530.106   CPU_ReadMem(4 bytes @ 0xE000EDF0)
T0564 000:530.285   Data:  03 00 03 00
T0564 000:530.305   Debug reg: DHCSR
T0564 000:530.322 - 0.237ms returns 1 (0x1)
T0564 000:530.336 JLINK_WriteU32_64(0xE000EDF0, 0xA05F0003)
T0564 000:530.351   Debug reg: DHCSR
T0564 000:530.560   CPU_WriteMem(4 bytes @ 0xE000EDF0)
T0564 000:530.723 - 0.397ms returns 0 (0x00000000)
T0564 000:530.743 JLINK_WriteU32_64(0xE000EDFC, 0x01000000)
T0564 000:530.756   Debug reg: DEMCR
T0564 000:530.778   CPU_WriteMem(4 bytes @ 0xE000EDFC)
T0564 000:530.947 - 0.210ms returns 0 (0x00000000)
T0564 000:541.818 JLINK_GetHWStatus(...)
T0564 000:541.930 - 0.118ms returns 0
T0564 000:549.867 JLINK_GetNumBPUnits(Type = 0xFFFFFF00)
T0564 000:549.889 - 0.027ms returns 0x04
T0564 000:549.902 JLINK_GetNumBPUnits(Type = 0xF0)
T0564 000:549.914 - 0.017ms returns 0x2000
T0564 000:549.927 JLINK_GetNumWPUnits()
T0564 000:549.939 - 0.017ms returns 2
T0564 000:557.715 JLINK_GetSpeed()
T0564 000:557.737 - 0.027ms returns 5000
T0564 000:563.204 JLINK_ReadMemU32(0xE000E004, 0x1 Items)
T0564 000:563.231   CPU_ReadMem(4 bytes @ 0xE000E004)
T0564 000:563.393   Data:  00 00 00 00
T0564 000:563.412 - 0.214ms returns 1 (0x1)
T0564 000:563.429 JLINK_Halt()
T0564 000:563.440 - 0.017ms returns 0x00
T0564 000:563.461 JLINK_IsHalted()
T0564 000:563.473 - 0.018ms returns TRUE
T0564 000:566.736 JLINK_WriteMem(0x20000000, 0x170 Bytes, ...)
T0564 000:566.753   Data:  00 BE 0A E0 0D 78 2D 06 68 40 08 24 40 00 00 D3 ...
T0564 000:566.943   CPU_WriteMem(368 bytes @ 0x20000000)
T0564 000:568.110 - 1.381ms returns 0x170
T0564 000:568.143 JLINK_HasError()
T0564 000:568.157 JLINK_WriteReg(R0, 0x08000000)
T0564 000:568.171 - 0.019ms returns 0
T0564 000:568.184 JLINK_WriteReg(R1, 0x007A1200)
T0564 000:568.196 - 0.018ms returns 0
T0564 000:568.208 JLINK_WriteReg(R2, 0x00000001)
T0564 000:568.221 - 0.018ms returns 0
T0564 000:568.233 JLINK_WriteReg(R3, 0x00000000)
T0564 000:568.246 - 0.019ms returns 0
T0564 000:568.259 JLINK_WriteReg(R4, 0x00000000)
T0564 000:568.271 - 0.018ms returns 0
T0564 000:568.284 JLINK_WriteReg(R5, 0x00000000)
T0564 000:568.296 - 0.018ms returns 0
T0564 000:568.308 JLINK_WriteReg(R6, 0x00000000)
T0564 000:568.320 - 0.020ms returns 0
T0564 000:568.335 JLINK_WriteReg(R7, 0x00000000)
T0564 000:568.347 - 0.018ms returns 0
T0564 000:568.360 JLINK_WriteReg(R8, 0x00000000)
T0564 000:568.376 - 0.021ms returns 0
T0564 000:568.389 JLINK_WriteReg(R9, 0x2000016C)
T0564 000:568.401 - 0.018ms returns 0
T0564 000:568.413 JLINK_WriteReg(R10, 0x00000000)
T0564 000:568.426 - 0.018ms returns 0
T0564 000:568.438 JLINK_WriteReg(R11, 0x00000000)
T0564 000:568.450 - 0.018ms returns 0
T0564 000:568.463 JLINK_WriteReg(R12, 0x00000000)
T0564 000:568.475 - 0.018ms returns 0
T0564 000:568.488 JLINK_WriteReg(R13 (SP), 0x20001000)
T0564 000:568.500 - 0.018ms returns 0
T0564 000:568.513 JLINK_WriteReg(R14, 0x20000001)
T0564 000:568.525 - 0.018ms returns 0
T0564 000:568.538 JLINK_WriteReg(R15 (PC), 0x20000038)
T0564 000:568.550 - 0.018ms returns 0
T0564 000:568.564 JLINK_WriteReg(XPSR, 0x01000000)
T0564 000:568.576 - 0.018ms returns 0
T0564 000:568.588 JLINK_WriteReg(MSP, 0x20001000)
T0564 000:568.601 - 0.018ms returns 0
T0564 000:568.614 JLINK_WriteReg(PSP, 0x20001000)
T0564 000:568.626 - 0.018ms returns 0
T0564 000:568.638 JLINK_WriteReg(CFBP, 0x00000000)
T0564 000:568.651 - 0.018ms returns 0
T0564 000:568.663 JLINK_SetBPEx(Addr = 0x20000000, Type = 0xFFFFFFF2)
T0564 000:568.679   CPU_ReadMem(2 bytes @ 0x20000000)
T0564 000:568.840 - 0.184ms returns 0x00000001
T0564 000:568.855 JLINK_Go()
T0564 000:568.869   CPU_WriteMem(2 bytes @ 0x20000000)
T0564 000:569.055   CPU_ReadMem(4 bytes @ 0xE0001000)
T0564 000:569.290   CPU_WriteMem(4 bytes @ 0xE0001000)
T0564 000:569.309   CPU_WriteMem(4 bytes @ 0xE0002008)
T0564 000:569.329   CPU_WriteMem(4 bytes @ 0xE000200C)
T0564 000:569.347   CPU_WriteMem(4 bytes @ 0xE0002010)
T0564 000:569.365   CPU_WriteMem(4 bytes @ 0xE0002014)
T0564 000:569.965   CPU_WriteMem(4 bytes @ 0xE0001004)
T0564 000:571.614 - 2.766ms
T0564 000:571.630 JLINK_IsHalted()
T0564 000:573.165   CPU_ReadMem(2 bytes @ 0x20000000)
T0564 000:573.321 - 1.699ms returns TRUE
T0564 000:573.338 JLINK_ReadReg(R15 (PC))
T0564 000:573.352 - 0.019ms returns 0x20000000
T0564 000:573.365 JLINK_ClrBPEx(BPHandle = 0x00000001)
T0564 000:573.377 - 0.018ms returns 0x00
T0564 000:573.390 JLINK_ReadReg(R0)
T0564 000:573.402 - 0.018ms returns 0x00000000
T0564 000:573.972 JLINK_HasError()
T0564 000:573.993 JLINK_WriteReg(R0, 0x08000000)
T0564 000:574.007 - 0.021ms returns 0
T0564 000:574.021 JLINK_WriteReg(R1, 0x007A1200)
T0564 000:574.034 - 0.018ms returns 0
T0564 000:574.046 JLINK_WriteReg(R2, 0x00000001)
T0564 000:574.059 - 0.018ms returns 0
T0564 000:574.072 JLINK_WriteReg(R3, 0x00000000)
T0564 000:574.084 - 0.018ms returns 0
T0564 000:574.097 JLINK_WriteReg(R4, 0x00000000)
T0564 000:574.110 - 0.018ms returns 0
T0564 000:574.122 JLINK_WriteReg(R5, 0x00000000)
T0564 000:574.135 - 0.018ms returns 0
T0564 000:574.147 JLINK_WriteReg(R6, 0x00000000)
T0564 000:574.160 - 0.018ms returns 0
T0564 000:574.172 JLINK_WriteReg(R7, 0x00000000)
T0564 000:574.185 - 0.018ms returns 0
T0564 000:574.197 JLINK_WriteReg(R8, 0x00000000)
T0564 000:574.210 - 0.018ms returns 0
T0564 000:574.222 JLINK_WriteReg(R9, 0x2000016C)
T0564 000:574.235 - 0.018ms returns 0
T0564 000:574.247 JLINK_WriteReg(R10, 0x00000000)
T0564 000:574.260 - 0.018ms returns 0
T0564 000:574.273 JLINK_WriteReg(R11, 0x00000000)
T0564 000:574.285 - 0.018ms returns 0
T0564 000:574.298 JLINK_WriteReg(R12, 0x00000000)
T0564 000:574.310 - 0.018ms returns 0
T0564 000:574.322 JLINK_WriteReg(R13 (SP), 0x20001000)
T0564 000:574.340 - 0.023ms returns 0
T0564 000:574.353 JLINK_WriteReg(R14, 0x20000001)
T0564 000:574.366 - 0.018ms returns 0
T0564 000:574.378 JLINK_WriteReg(R15 (PC), 0x20000074)
T0564 000:574.390 - 0.018ms returns 0
T0564 000:574.403 JLINK_WriteReg(XPSR, 0x01000000)
T0564 000:574.415 - 0.018ms returns 0
T0564 000:574.428 JLINK_WriteReg(MSP, 0x20001000)
T0564 000:574.441 - 0.018ms returns 0
T0564 000:574.454 JLINK_WriteReg(PSP, 0x20001000)
T0564 000:574.466 - 0.018ms returns 0
T0564 000:574.478 JLINK_WriteReg(CFBP, 0x00000000)
T0564 000:574.491 - 0.018ms returns 0
T0564 000:574.503 JLINK_SetBPEx(Addr = 0x20000000, Type = 0xFFFFFFF2)
T0564 000:574.516 - 0.018ms returns 0x00000002
T0564 000:574.529 JLINK_Go()
T0564 000:574.546   CPU_ReadMem(4 bytes @ 0xE0001000)
T0564 000:574.704   CPU_WriteMem(4 bytes @ 0xE0001000)
T0564 000:576.365 - 1.844ms
T0564 000:576.381 JLINK_IsHalted()
T0564 000:576.546 - 0.171ms returns FALSE
T0564 000:576.560 JLINK_HasError()
T0564 000:585.345 JLINK_IsHalted()
T0564 000:585.514 - 0.176ms returns FALSE
T0564 000:585.529 JLINK_HasError()
T0564 000:587.347 JLINK_IsHalted()
T0564 000:587.509 - 0.169ms returns FALSE
T0564 000:587.524 JLINK_HasError()
T0564 000:589.347 JLINK_IsHalted()
T0564 000:589.503 - 0.162ms returns FALSE
T0564 000:589.517 JLINK_HasError()
T0564 000:591.351 JLINK_IsHalted()
T0564 000:591.514 - 0.171ms returns FALSE
T0564 000:591.530 JLINK_HasError()
T0564 000:593.351 JLINK_IsHalted()
T0564 000:593.511 - 0.166ms returns FALSE
T0564 000:593.525 JLINK_HasError()
T0564 000:595.354 JLINK_IsHalted()
T0564 000:595.517 - 0.169ms returns FALSE
T0564 000:595.532 JLINK_HasError()
T0564 000:597.354 JLINK_IsHalted()
T0564 000:597.510 - 0.163ms returns FALSE
T0564 000:597.525 JLINK_HasError()
T0564 000:599.356 JLINK_IsHalted()
T0564 000:600.795   CPU_ReadMem(2 bytes @ 0x20000000)
T0564 000:600.997 - 1.648ms returns TRUE
T0564 000:601.012 JLINK_ReadReg(R15 (PC))
T0564 000:601.026 - 0.020ms returns 0x20000000
T0564 000:601.040 JLINK_ClrBPEx(BPHandle = 0x00000002)
T0564 000:601.052 - 0.018ms returns 0x00
T0564 000:601.065 JLINK_ReadReg(R0)
T0564 000:601.078 - 0.018ms returns 0x00000000
T0564 000:652.112 JLINK_HasError()
T0564 000:652.136 JLINK_WriteReg(R0, 0x00000001)
T0564 000:652.152 - 0.021ms returns 0
T0564 000:652.165 JLINK_WriteReg(R1, 0x007A1200)
T0564 000:652.178 - 0.018ms returns 0
T0564 000:652.190 JLINK_WriteReg(R2, 0x00000001)
T0564 000:652.203 - 0.018ms returns 0
T0564 000:652.216 JLINK_WriteReg(R3, 0x00000000)
T0564 000:652.228 - 0.018ms returns 0
T0564 000:652.240 JLINK_WriteReg(R4, 0x00000000)
T0564 000:652.252 - 0.018ms returns 0
T0564 000:652.265 JLINK_WriteReg(R5, 0x00000000)
T0564 000:652.277 - 0.018ms returns 0
T0564 000:652.290 JLINK_WriteReg(R6, 0x00000000)
T0564 000:652.302 - 0.018ms returns 0
T0564 000:652.315 JLINK_WriteReg(R7, 0x00000000)
T0564 000:652.327 - 0.018ms returns 0
T0564 000:652.339 JLINK_WriteReg(R8, 0x00000000)
T0564 000:652.352 - 0.018ms returns 0
T0564 000:652.364 JLINK_WriteReg(R9, 0x2000016C)
T0564 000:652.376 - 0.018ms returns 0
T0564 000:652.389 JLINK_WriteReg(R10, 0x00000000)
T0564 000:652.404 - 0.020ms returns 0
T0564 000:652.416 JLINK_WriteReg(R11, 0x00000000)
T0564 000:652.428 - 0.018ms returns 0
T0564 000:652.441 JLINK_WriteReg(R12, 0x00000000)
T0564 000:652.453 - 0.018ms returns 0
T0564 000:652.466 JLINK_WriteReg(R13 (SP), 0x20001000)
T0564 000:652.478 - 0.018ms returns 0
T0564 000:652.491 JLINK_WriteReg(R14, 0x20000001)
T0564 000:652.503 - 0.018ms returns 0
T0564 000:652.516 JLINK_WriteReg(R15 (PC), 0x20000066)
T0564 000:652.528 - 0.018ms returns 0
T0564 000:652.541 JLINK_WriteReg(XPSR, 0x01000000)
T0564 000:652.553 - 0.018ms returns 0
T0564 000:652.566 JLINK_WriteReg(MSP, 0x20001000)
T0564 000:652.579 - 0.019ms returns 0
T0564 000:652.592 JLINK_WriteReg(PSP, 0x20001000)
T0564 000:652.604 - 0.018ms returns 0
T0564 000:652.617 JLINK_WriteReg(CFBP, 0x00000000)
T0564 000:652.629 - 0.018ms returns 0
T0564 000:652.641 JLINK_SetBPEx(Addr = 0x20000000, Type = 0xFFFFFFF2)
T0564 000:652.655 - 0.018ms returns 0x00000003
T0564 000:652.667 JLINK_Go()
T0564 000:652.686   CPU_ReadMem(4 bytes @ 0xE0001000)
T0564 000:652.856   CPU_WriteMem(4 bytes @ 0xE0001000)
T0564 000:654.504 - 1.850ms
T0564 000:654.527 JLINK_IsHalted()
T0564 000:656.053   CPU_ReadMem(2 bytes @ 0x20000000)
T0564 000:656.208 - 1.688ms returns TRUE
T0564 000:656.225 JLINK_ReadReg(R15 (PC))
T0564 000:656.238 - 0.019ms returns 0x20000000
T0564 000:656.252 JLINK_ClrBPEx(BPHandle = 0x00000003)
T0564 000:656.264 - 0.018ms returns 0x00
T0564 000:656.278 JLINK_ReadReg(R0)
T0564 000:656.290 - 0.018ms returns 0x00000000
T0564 000:661.341 JLINK_WriteMem(0x20000000, 0x170 Bytes, ...)
T0564 000:661.358   Data:  00 BE 0A E0 0D 78 2D 06 68 40 08 24 40 00 00 D3 ...
T0564 000:661.383   CPU_WriteMem(368 bytes @ 0x20000000)
T0564 000:662.564 - 1.230ms returns 0x170
T0564 000:662.597 JLINK_HasError()
T0564 000:662.610 JLINK_WriteReg(R0, 0x08000000)
T0564 000:662.624 - 0.019ms returns 0
T0564 000:662.637 JLINK_WriteReg(R1, 0x007A1200)
T0564 000:662.649 - 0.018ms returns 0
T0564 000:662.662 JLINK_WriteReg(R2, 0x00000002)
T0564 000:662.674 - 0.018ms returns 0
T0564 000:662.687 JLINK_WriteReg(R3, 0x00000000)
T0564 000:662.699 - 0.018ms returns 0
T0564 000:662.711 JLINK_WriteReg(R4, 0x00000000)
T0564 000:662.724 - 0.018ms returns 0
T0564 000:662.736 JLINK_WriteReg(R5, 0x00000000)
T0564 000:662.748 - 0.018ms returns 0
T0564 000:662.761 JLINK_WriteReg(R6, 0x00000000)
T0564 000:662.773 - 0.018ms returns 0
T0564 000:662.786 JLINK_WriteReg(R7, 0x00000000)
T0564 000:662.798 - 0.018ms returns 0
T0564 000:662.811 JLINK_WriteReg(R8, 0x00000000)
T0564 000:662.823 - 0.018ms returns 0
T0564 000:662.836 JLINK_WriteReg(R9, 0x2000016C)
T0564 000:662.848 - 0.018ms returns 0
T0564 000:662.860 JLINK_WriteReg(R10, 0x00000000)
T0564 000:662.873 - 0.067ms returns 0
T0564 000:662.938 JLINK_WriteReg(R11, 0x00000000)
T0564 000:662.950 - 0.018ms returns 0
T0564 000:662.963 JLINK_WriteReg(R12, 0x00000000)
T0564 000:662.975 - 0.018ms returns 0
T0564 000:662.988 JLINK_WriteReg(R13 (SP), 0x20001000)
T0564 000:663.000 - 0.018ms returns 0
T0564 000:663.013 JLINK_WriteReg(R14, 0x20000001)
T0564 000:663.025 - 0.022ms returns 0
T0564 000:663.043 JLINK_WriteReg(R15 (PC), 0x20000038)
T0564 000:663.055 - 0.018ms returns 0
T0564 000:663.067 JLINK_WriteReg(XPSR, 0x01000000)
T0564 000:663.080 - 0.018ms returns 0
T0564 000:663.092 JLINK_WriteReg(MSP, 0x20001000)
T0564 000:663.105 - 0.018ms returns 0
T0564 000:663.117 JLINK_WriteReg(PSP, 0x20001000)
T0564 000:663.129 - 0.018ms returns 0
T0564 000:663.142 JLINK_WriteReg(CFBP, 0x00000000)
T0564 000:663.154 - 0.018ms returns 0
T0564 000:663.167 JLINK_SetBPEx(Addr = 0x20000000, Type = 0xFFFFFFF2)
T0564 000:663.182   CPU_ReadMem(2 bytes @ 0x20000000)
T0564 000:663.344 - 0.184ms returns 0x00000004
T0564 000:663.359 JLINK_Go()
T0564 000:663.373   CPU_WriteMem(2 bytes @ 0x20000000)
T0564 000:663.581   CPU_ReadMem(4 bytes @ 0xE0001000)
T0564 000:663.800   CPU_WriteMem(4 bytes @ 0xE0001000)
T0564 000:665.500 - 2.148ms
T0564 000:665.515 JLINK_IsHalted()
T0564 000:667.066   CPU_ReadMem(2 bytes @ 0x20000000)
T0564 000:667.219 - 1.710ms returns TRUE
T0564 000:667.233 JLINK_ReadReg(R15 (PC))
T0564 000:667.246 - 0.019ms returns 0x20000000
T0564 000:667.259 JLINK_ClrBPEx(BPHandle = 0x00000004)
T0564 000:667.271 - 0.018ms returns 0x00
T0564 000:667.284 JLINK_ReadReg(R0)
T0564 000:667.296 - 0.018ms returns 0x00000000
T0564 000:667.505 JLINK_WriteMem(0x20000170, 0x290 Bytes, ...)
T0564 000:667.523   Data:  30 0B 00 20 55 02 00 08 91 62 00 08 95 4E 00 08 ...
T0564 000:667.546   CPU_WriteMem(656 bytes @ 0x20000170)
T0564 000:669.525 - 2.032ms returns 0x290
T0564 000:669.547 JLINK_WriteMem(0x20000400, 0x170 Bytes, ...)
T0564 000:669.559   Data:  04 DB 08 46 20 3A D0 40 00 21 10 BD 0B 46 20 24 ...
T0564 000:669.582   CPU_WriteMem(368 bytes @ 0x20000400)
T0564 000:670.747 - 1.207ms returns 0x170
T0564 000:670.762 JLINK_HasError()
T0564 000:670.775 JLINK_WriteReg(R0, 0x08000000)
T0564 000:670.791 - 0.021ms returns 0
T0564 000:670.804 JLINK_WriteReg(R1, 0x00000400)
T0564 000:670.816 - 0.018ms returns 0
T0564 000:670.828 JLINK_WriteReg(R2, 0x20000170)
T0564 000:670.841 - 0.018ms returns 0
T0564 000:670.853 JLINK_WriteReg(R3, 0x00000000)
T0564 000:670.865 - 0.018ms returns 0
T0564 000:670.878 JLINK_WriteReg(R4, 0x00000000)
T0564 000:670.890 - 0.017ms returns 0
T0564 000:670.902 JLINK_WriteReg(R5, 0x00000000)
T0564 000:670.915 - 0.018ms returns 0
T0564 000:670.927 JLINK_WriteReg(R6, 0x00000000)
T0564 000:670.939 - 0.017ms returns 0
T0564 000:670.952 JLINK_WriteReg(R7, 0x00000000)
T0564 000:670.964 - 0.018ms returns 0
T0564 000:670.977 JLINK_WriteReg(R8, 0x00000000)
T0564 000:670.989 - 0.018ms returns 0
T0564 000:671.001 JLINK_WriteReg(R9, 0x2000016C)
T0564 000:671.013 - 0.018ms returns 0
T0564 000:671.026 JLINK_WriteReg(R10, 0x00000000)
T0564 000:671.038 - 0.018ms returns 0
T0564 000:671.050 JLINK_WriteReg(R11, 0x00000000)
T0564 000:671.063 - 0.018ms returns 0
T0564 000:671.075 JLINK_WriteReg(R12, 0x00000000)
T0564 000:671.087 - 0.018ms returns 0
T0564 000:671.100 JLINK_WriteReg(R13 (SP), 0x20001000)
T0564 000:671.112 - 0.018ms returns 0
T0564 000:671.125 JLINK_WriteReg(R14, 0x20000001)
T0564 000:671.137 - 0.018ms returns 0
T0564 000:671.150 JLINK_WriteReg(R15 (PC), 0x200000FA)
T0564 000:671.162 - 0.018ms returns 0
T0564 000:671.174 JLINK_WriteReg(XPSR, 0x01000000)
T0564 000:671.187 - 0.018ms returns 0
T0564 000:671.199 JLINK_WriteReg(MSP, 0x20001000)
T0564 000:671.211 - 0.018ms returns 0
T0564 000:671.224 JLINK_WriteReg(PSP, 0x20001000)
T0564 000:671.237 - 0.018ms returns 0
T0564 000:671.249 JLINK_WriteReg(CFBP, 0x00000000)
T0564 000:671.261 - 0.017ms returns 0
T0564 000:671.274 JLINK_SetBPEx(Addr = 0x20000000, Type = 0xFFFFFFF2)
T0564 000:671.286 - 0.018ms returns 0x00000005
T0564 000:671.301 JLINK_Go()
T0564 000:671.319   CPU_ReadMem(4 bytes @ 0xE0001000)
T0564 000:671.467   CPU_WriteMem(4 bytes @ 0xE0001000)
T0564 000:673.126 - 1.831ms
T0564 000:673.141 JLINK_IsHalted()
T0564 000:673.308 - 0.174ms returns FALSE
T0564 000:673.322 JLINK_HasError()
T0564 000:677.430 JLINK_IsHalted()
T0564 000:677.602 - 0.185ms returns FALSE
T0564 000:677.624 JLINK_HasError()
T0564 000:679.430 JLINK_IsHalted()
T0564 000:679.585 - 0.161ms returns FALSE
T0564 000:679.599 JLINK_HasError()
T0564 000:681.431 JLINK_IsHalted()
T0564 000:681.583 - 0.159ms returns FALSE
T0564 000:681.597 JLINK_HasError()
T0564 000:683.434 JLINK_IsHalted()
T0564 000:683.597 - 0.169ms returns FALSE
T0564 000:683.612 JLINK_HasError()
T0564 000:685.437 JLINK_IsHalted()
T0564 000:685.601 - 0.171ms returns FALSE
T0564 000:685.615 JLINK_HasError()
T0564 000:687.438 JLINK_IsHalted()
T0564 000:687.596 - 0.165ms returns FALSE
T0564 000:687.611 JLINK_HasError()
T0564 000:689.436 JLINK_IsHalted()
T0564 000:689.586 - 0.156ms returns FALSE
T0564 000:689.600 JLINK_HasError()
T0564 000:691.440 JLINK_IsHalted()
T0564 000:691.599 - 0.165ms returns FALSE
T0564 000:691.613 JLINK_HasError()
T0564 000:693.444 JLINK_IsHalted()
T0564 000:693.610 - 0.173ms returns FALSE
T0564 000:693.625 JLINK_HasError()
T0564 000:695.443 JLINK_IsHalted()
T0564 000:695.597 - 0.160ms returns FALSE
T0564 000:695.611 JLINK_HasError()
T0564 000:697.445 JLINK_IsHalted()
T0564 000:697.607 - 0.169ms returns FALSE
T0564 000:697.622 JLINK_HasError()
T0564 000:699.447 JLINK_IsHalted()
T0564 000:699.620 - 0.180ms returns FALSE
T0564 000:699.636 JLINK_HasError()
T0564 000:701.449 JLINK_IsHalted()
T0564 000:701.603 - 0.160ms returns FALSE
T0564 000:701.617 JLINK_HasError()
T0564 000:703.453 JLINK_IsHalted()
T0564 000:704.937   CPU_ReadMem(2 bytes @ 0x20000000)
T0564 000:705.088 - 1.642ms returns TRUE
T0564 000:705.102 JLINK_ReadReg(R15 (PC))
T0564 000:705.116 - 0.019ms returns 0x20000000
T0564 000:705.129 JLINK_ClrBPEx(BPHandle = 0x00000005)
T0564 000:705.141 - 0.018ms returns 0x00
T0564 000:705.154 JLINK_ReadReg(R0)
T0564 000:705.167 - 0.018ms returns 0x00000000
T0564 000:705.568 JLINK_WriteMem(0x20000170, 0x290 Bytes, ...)
T0564 000:705.587   Data:  30 46 0A 22 00 21 00 F0 F1 FB 2C 60 70 BD 00 00 ...
T0564 000:705.610   CPU_WriteMem(656 bytes @ 0x20000170)
T0564 000:707.656 - 2.101ms returns 0x290
T0564 000:707.678 JLINK_WriteMem(0x20000400, 0x170 Bytes, ...)
T0564 000:707.691   Data:  A5 81 00 00 00 48 70 47 D0 04 00 20 70 B5 04 46 ...
T0564 000:707.714   CPU_WriteMem(368 bytes @ 0x20000400)
T0564 000:708.884 - 1.213ms returns 0x170
T0564 000:708.900 JLINK_HasError()
T0564 000:708.913 JLINK_WriteReg(R0, 0x08000400)
T0564 000:708.926 - 0.019ms returns 0
T0564 000:708.939 JLINK_WriteReg(R1, 0x00000400)
T0564 000:708.951 - 0.018ms returns 0
T0564 000:708.964 JLINK_WriteReg(R2, 0x20000170)
T0564 000:708.976 - 0.018ms returns 0
T0564 000:708.988 JLINK_WriteReg(R3, 0x00000000)
T0564 000:709.001 - 0.018ms returns 0
T0564 000:709.013 JLINK_WriteReg(R4, 0x00000000)
T0564 000:709.025 - 0.018ms returns 0
T0564 000:709.038 JLINK_WriteReg(R5, 0x00000000)
T0564 000:709.050 - 0.018ms returns 0
T0564 000:709.063 JLINK_WriteReg(R6, 0x00000000)
T0564 000:709.075 - 0.018ms returns 0
T0564 000:709.088 JLINK_WriteReg(R7, 0x00000000)
T0564 000:709.100 - 0.018ms returns 0
T0564 000:709.112 JLINK_WriteReg(R8, 0x00000000)
T0564 000:709.124 - 0.017ms returns 0
T0564 000:709.137 JLINK_WriteReg(R9, 0x2000016C)
T0564 000:709.149 - 0.017ms returns 0
T0564 000:709.162 JLINK_WriteReg(R10, 0x00000000)
T0564 000:709.174 - 0.018ms returns 0
T0564 000:709.186 JLINK_WriteReg(R11, 0x00000000)
T0564 000:709.199 - 0.018ms returns 0
T0564 000:709.211 JLINK_WriteReg(R12, 0x00000000)
T0564 000:709.223 - 0.018ms returns 0
T0564 000:709.236 JLINK_WriteReg(R13 (SP), 0x20001000)
T0564 000:709.249 - 0.018ms returns 0
T0564 000:709.261 JLINK_WriteReg(R14, 0x20000001)
T0564 000:709.273 - 0.018ms returns 0
T0564 000:709.286 JLINK_WriteReg(R15 (PC), 0x200000FA)
T0564 000:709.301 - 0.021ms returns 0
T0564 000:709.315 JLINK_WriteReg(XPSR, 0x01000000)
T0564 000:709.327 - 0.018ms returns 0
T0564 000:709.340 JLINK_WriteReg(MSP, 0x20001000)
T0564 000:709.352 - 0.018ms returns 0
T0564 000:709.365 JLINK_WriteReg(PSP, 0x20001000)
T0564 000:709.377 - 0.018ms returns 0
T0564 000:709.390 JLINK_WriteReg(CFBP, 0x00000000)
T0564 000:709.402 - 0.018ms returns 0
T0564 000:709.414 JLINK_SetBPEx(Addr = 0x20000000, Type = 0xFFFFFFF2)
T0564 000:709.427 - 0.018ms returns 0x00000006
T0564 000:709.440 JLINK_Go()
T0564 000:709.460   CPU_ReadMem(4 bytes @ 0xE0001000)
T0564 000:709.609   CPU_WriteMem(4 bytes @ 0xE0001000)
T0564 000:711.255 - 1.822ms
T0564 000:711.270 JLINK_IsHalted()
T0564 000:711.438 - 0.174ms returns FALSE
T0564 000:711.452 JLINK_HasError()
T0564 000:714.462 JLINK_IsHalted()
T0564 000:714.663 - 0.208ms returns FALSE
T0564 000:714.679 JLINK_HasError()
T0564 000:716.463 JLINK_IsHalted()
T0564 000:716.622 - 0.165ms returns FALSE
T0564 000:716.636 JLINK_HasError()
T0564 000:718.465 JLINK_IsHalted()
T0564 000:718.616 - 0.157ms returns FALSE
T0564 000:718.630 JLINK_HasError()
T0564 000:720.466 JLINK_IsHalted()
T0564 000:720.616 - 0.156ms returns FALSE
T0564 000:720.629 JLINK_HasError()
T0564 000:722.468 JLINK_IsHalted()
T0564 000:722.621 - 0.159ms returns FALSE
T0564 000:722.635 JLINK_HasError()
T0564 000:724.480 JLINK_IsHalted()
T0564 000:724.646 - 0.173ms returns FALSE
T0564 000:724.661 JLINK_HasError()
T0564 000:726.472 JLINK_IsHalted()
T0564 000:726.629 - 0.163ms returns FALSE
T0564 000:726.643 JLINK_HasError()
T0564 000:728.472 JLINK_IsHalted()
T0564 000:728.622 - 0.156ms returns FALSE
T0564 000:728.636 JLINK_HasError()
T0564 000:730.478 JLINK_IsHalted()
T0564 000:730.646 - 0.175ms returns FALSE
T0564 000:730.662 JLINK_HasError()
T0564 000:732.480 JLINK_IsHalted()
T0564 000:732.640 - 0.167ms returns FALSE
T0564 000:732.655 JLINK_HasError()
T0564 000:734.477 JLINK_IsHalted()
T0564 000:734.627 - 0.156ms returns FALSE
T0564 000:734.641 JLINK_HasError()
T0564 000:736.481 JLINK_IsHalted()
T0564 000:736.635 - 0.160ms returns FALSE
T0564 000:736.649 JLINK_HasError()
T0564 000:738.483 JLINK_IsHalted()
T0564 000:738.633 - 0.156ms returns FALSE
T0564 000:738.646 JLINK_HasError()
T0564 000:740.485 JLINK_IsHalted()
T0564 000:740.686 - 0.207ms returns FALSE
T0564 000:740.700 JLINK_HasError()
T0564 000:742.488 JLINK_IsHalted()
T0564 000:743.939   CPU_ReadMem(2 bytes @ 0x20000000)
T0564 000:744.091 - 1.609ms returns TRUE
T0564 000:744.106 JLINK_ReadReg(R15 (PC))
T0564 000:744.119 - 0.019ms returns 0x20000000
T0564 000:744.132 JLINK_ClrBPEx(BPHandle = 0x00000006)
T0564 000:744.144 - 0.018ms returns 0x00
T0564 000:744.157 JLINK_ReadReg(R0)
T0564 000:744.170 - 0.018ms returns 0x00000000
T0564 000:744.564 JLINK_WriteMem(0x20000170, 0x290 Bytes, ...)
T0564 000:744.584   Data:  8F B0 02 91 00 21 05 91 05 49 01 93 79 44 03 91 ...
T0564 000:744.611   CPU_WriteMem(656 bytes @ 0x20000170)
T0564 000:746.603 - 2.052ms returns 0x290
T0564 000:746.625 JLINK_WriteMem(0x20000400, 0x170 Bytes, ...)
T0564 000:746.637   Data:  05 46 08 DB 31 2D 06 D2 78 19 20 38 00 78 00 28 ...
T0564 000:746.659   CPU_WriteMem(368 bytes @ 0x20000400)
T0564 000:747.838 - 1.220ms returns 0x170
T0564 000:747.853 JLINK_HasError()
T0564 000:747.866 JLINK_WriteReg(R0, 0x08000800)
T0564 000:747.879 - 0.019ms returns 0
T0564 000:747.892 JLINK_WriteReg(R1, 0x00000400)
T0564 000:747.904 - 0.018ms returns 0
T0564 000:747.917 JLINK_WriteReg(R2, 0x20000170)
T0564 000:747.929 - 0.018ms returns 0
T0564 000:747.942 JLINK_WriteReg(R3, 0x00000000)
T0564 000:747.954 - 0.018ms returns 0
T0564 000:747.967 JLINK_WriteReg(R4, 0x00000000)
T0564 000:747.979 - 0.018ms returns 0
T0564 000:747.991 JLINK_WriteReg(R5, 0x00000000)
T0564 000:748.004 - 0.018ms returns 0
T0564 000:748.016 JLINK_WriteReg(R6, 0x00000000)
T0564 000:748.028 - 0.018ms returns 0
T0564 000:748.041 JLINK_WriteReg(R7, 0x00000000)
T0564 000:748.053 - 0.018ms returns 0
T0564 000:748.066 JLINK_WriteReg(R8, 0x00000000)
T0564 000:748.081 - 0.021ms returns 0
T0564 000:748.094 JLINK_WriteReg(R9, 0x2000016C)
T0564 000:748.106 - 0.018ms returns 0
T0564 000:748.119 JLINK_WriteReg(R10, 0x00000000)
T0564 000:748.131 - 0.018ms returns 0
T0564 000:748.144 JLINK_WriteReg(R11, 0x00000000)
T0564 000:748.156 - 0.018ms returns 0
T0564 000:748.168 JLINK_WriteReg(R12, 0x00000000)
T0564 000:748.181 - 0.018ms returns 0
T0564 000:748.193 JLINK_WriteReg(R13 (SP), 0x20001000)
T0564 000:748.206 - 0.018ms returns 0
T0564 000:748.218 JLINK_WriteReg(R14, 0x20000001)
T0564 000:748.230 - 0.018ms returns 0
T0564 000:748.243 JLINK_WriteReg(R15 (PC), 0x200000FA)
T0564 000:748.255 - 0.018ms returns 0
T0564 000:748.268 JLINK_WriteReg(XPSR, 0x01000000)
T0564 000:748.280 - 0.018ms returns 0
T0564 000:748.292 JLINK_WriteReg(MSP, 0x20001000)
T0564 000:748.304 - 0.018ms returns 0
T0564 000:748.317 JLINK_WriteReg(PSP, 0x20001000)
T0564 000:748.329 - 0.018ms returns 0
T0564 000:748.342 JLINK_WriteReg(CFBP, 0x00000000)
T0564 000:748.354 - 0.018ms returns 0
T0564 000:748.366 JLINK_SetBPEx(Addr = 0x20000000, Type = 0xFFFFFFF2)
T0564 000:748.379 - 0.018ms returns 0x00000007
T0564 000:748.392 JLINK_Go()
T0564 000:748.408   CPU_ReadMem(4 bytes @ 0xE0001000)
T0564 000:748.565   CPU_WriteMem(4 bytes @ 0xE0001000)
T0564 000:750.259 - 1.875ms
T0564 000:750.275 JLINK_IsHalted()
T0564 000:750.443 - 0.174ms returns FALSE
T0564 000:750.457 JLINK_HasError()
T0564 000:751.495 JLINK_IsHalted()
T0564 000:751.644 - 0.155ms returns FALSE
T0564 000:751.658 JLINK_HasError()
T0564 000:753.497 JLINK_IsHalted()
T0564 000:753.657 - 0.167ms returns FALSE
T0564 000:753.672 JLINK_HasError()
T0564 000:755.515 JLINK_IsHalted()
T0564 000:755.677 - 0.169ms returns FALSE
T0564 000:755.692 JLINK_HasError()
T0564 000:757.502 JLINK_IsHalted()
T0564 000:757.688 - 0.193ms returns FALSE
T0564 000:757.703 JLINK_HasError()
T0564 000:759.503 JLINK_IsHalted()
T0564 000:759.685 - 0.194ms returns FALSE
T0564 000:759.706 JLINK_HasError()
T0564 000:761.504 JLINK_IsHalted()
T0564 000:761.658 - 0.160ms returns FALSE
T0564 000:761.672 JLINK_HasError()
T0564 000:763.508 JLINK_IsHalted()
T0564 000:763.670 - 0.169ms returns FALSE
T0564 000:763.685 JLINK_HasError()
T0564 000:765.508 JLINK_IsHalted()
T0564 000:765.658 - 0.157ms returns FALSE
T0564 000:765.672 JLINK_HasError()
T0564 000:767.507 JLINK_IsHalted()
T0564 000:767.660 - 0.159ms returns FALSE
T0564 000:767.674 JLINK_HasError()
T0564 000:769.511 JLINK_IsHalted()
T0564 000:769.672 - 0.166ms returns FALSE
T0564 000:769.685 JLINK_HasError()
T0564 000:771.512 JLINK_IsHalted()
T0564 000:771.662 - 0.156ms returns FALSE
T0564 000:771.676 JLINK_HasError()
T0564 000:773.516 JLINK_IsHalted()
T0564 000:773.676 - 0.167ms returns FALSE
T0564 000:773.691 JLINK_HasError()
T0564 000:775.519 JLINK_IsHalted()
T0564 000:775.683 - 0.171ms returns FALSE
T0564 000:775.698 JLINK_HasError()
T0564 000:777.518 JLINK_IsHalted()
T0564 000:777.673 - 0.160ms returns FALSE
T0564 000:777.686 JLINK_HasError()
T0564 000:779.520 JLINK_IsHalted()
T0564 000:779.673 - 0.160ms returns FALSE
T0564 000:779.687 JLINK_HasError()
T0564 000:781.522 JLINK_IsHalted()
T0564 000:782.952   CPU_ReadMem(2 bytes @ 0x20000000)
T0564 000:783.108 - 1.593ms returns TRUE
T0564 000:783.123 JLINK_ReadReg(R15 (PC))
T0564 000:783.137 - 0.019ms returns 0x20000000
T0564 000:783.150 JLINK_ClrBPEx(BPHandle = 0x00000007)
T0564 000:783.162 - 0.018ms returns 0x00
T0564 000:783.175 JLINK_ReadReg(R0)
T0564 000:783.187 - 0.018ms returns 0x00000000
T0564 000:783.575 JLINK_WriteMem(0x20000170, 0x290 Bytes, ...)
T0564 000:783.593   Data:  00 68 40 5D C0 07 F5 D1 2B 2D 02 D0 2D 2D 18 D0 ...
T0564 000:783.616   CPU_WriteMem(656 bytes @ 0x20000170)
T0564 000:785.609 - 2.046ms returns 0x290
T0564 000:785.630 JLINK_WriteMem(0x20000400, 0x170 Bytes, ...)
T0564 000:785.642   Data:  00 0C 03 D0 00 20 C0 43 41 08 00 E0 10 46 18 9A ...
T0564 000:785.664   CPU_WriteMem(368 bytes @ 0x20000400)
T0564 000:786.844 - 1.226ms returns 0x170
T0564 000:786.868 JLINK_HasError()
T0564 000:786.883 JLINK_WriteReg(R0, 0x08000C00)
T0564 000:786.897 - 0.020ms returns 0
T0564 000:786.909 JLINK_WriteReg(R1, 0x00000400)
T0564 000:786.922 - 0.018ms returns 0
T0564 000:786.934 JLINK_WriteReg(R2, 0x20000170)
T0564 000:786.946 - 0.018ms returns 0
T0564 000:786.960 JLINK_WriteReg(R3, 0x00000000)
T0564 000:786.972 - 0.018ms returns 0
T0564 000:786.984 JLINK_WriteReg(R4, 0x00000000)
T0564 000:786.997 - 0.018ms returns 0
T0564 000:787.009 JLINK_WriteReg(R5, 0x00000000)
T0564 000:787.021 - 0.018ms returns 0
T0564 000:787.034 JLINK_WriteReg(R6, 0x00000000)
T0564 000:787.046 - 0.018ms returns 0
T0564 000:787.058 JLINK_WriteReg(R7, 0x00000000)
T0564 000:787.070 - 0.017ms returns 0
T0564 000:787.083 JLINK_WriteReg(R8, 0x00000000)
T0564 000:787.095 - 0.017ms returns 0
T0564 000:787.108 JLINK_WriteReg(R9, 0x2000016C)
T0564 000:787.120 - 0.018ms returns 0
T0564 000:787.133 JLINK_WriteReg(R10, 0x00000000)
T0564 000:787.145 - 0.017ms returns 0
T0564 000:787.157 JLINK_WriteReg(R11, 0x00000000)
T0564 000:787.169 - 0.018ms returns 0
T0564 000:787.182 JLINK_WriteReg(R12, 0x00000000)
T0564 000:787.194 - 0.018ms returns 0
T0564 000:787.206 JLINK_WriteReg(R13 (SP), 0x20001000)
T0564 000:787.219 - 0.018ms returns 0
T0564 000:787.231 JLINK_WriteReg(R14, 0x20000001)
T0564 000:787.244 - 0.018ms returns 0
T0564 000:787.256 JLINK_WriteReg(R15 (PC), 0x200000FA)
T0564 000:787.268 - 0.018ms returns 0
T0564 000:787.281 JLINK_WriteReg(XPSR, 0x01000000)
T0564 000:787.293 - 0.018ms returns 0
T0564 000:787.306 JLINK_WriteReg(MSP, 0x20001000)
T0564 000:787.318 - 0.018ms returns 0
T0564 000:787.330 JLINK_WriteReg(PSP, 0x20001000)
T0564 000:787.342 - 0.018ms returns 0
T0564 000:787.355 JLINK_WriteReg(CFBP, 0x00000000)
T0564 000:787.367 - 0.018ms returns 0
T0564 000:787.380 JLINK_SetBPEx(Addr = 0x20000000, Type = 0xFFFFFFF2)
T0564 000:787.393 - 0.018ms returns 0x00000008
T0564 000:787.405 JLINK_Go()
T0564 000:787.422   CPU_ReadMem(4 bytes @ 0xE0001000)
T0564 000:787.573   CPU_WriteMem(4 bytes @ 0xE0001000)
T0564 000:789.264 - 1.866ms
T0564 000:789.279 JLINK_IsHalted()
T0564 000:789.446 - 0.173ms returns FALSE
T0564 000:789.460 JLINK_HasError()
T0564 000:792.534 JLINK_IsHalted()
T0564 000:792.704 - 0.177ms returns FALSE
T0564 000:792.719 JLINK_HasError()
T0564 000:794.533 JLINK_IsHalted()
T0564 000:794.684 - 0.157ms returns FALSE
T0564 000:794.698 JLINK_HasError()
T0564 000:796.536 JLINK_IsHalted()
T0564 000:796.702 - 0.172ms returns FALSE
T0564 000:796.716 JLINK_HasError()
T0564 000:798.537 JLINK_IsHalted()
T0564 000:798.688 - 0.156ms returns FALSE
T0564 000:798.701 JLINK_HasError()
T0564 000:800.540 JLINK_IsHalted()
T0564 000:800.718 - 0.185ms returns FALSE
T0564 000:800.733 JLINK_HasError()
T0564 000:802.543 JLINK_IsHalted()
T0564 000:802.720 - 0.183ms returns FALSE
T0564 000:802.734 JLINK_HasError()
T0564 000:804.543 JLINK_IsHalted()
T0564 000:804.724 - 0.193ms returns FALSE
T0564 000:804.745 JLINK_HasError()
T0564 000:806.547 JLINK_IsHalted()
T0564 000:806.722 - 0.183ms returns FALSE
T0564 000:806.738 JLINK_HasError()
T0564 000:808.549 JLINK_IsHalted()
T0564 000:808.721 - 0.179ms returns FALSE
T0564 000:808.736 JLINK_HasError()
T0564 000:810.550 JLINK_IsHalted()
T0564 000:810.722 - 0.184ms returns FALSE
T0564 000:810.743 JLINK_HasError()
T0564 000:812.554 JLINK_IsHalted()
T0564 000:812.726 - 0.180ms returns FALSE
T0564 000:812.742 JLINK_HasError()
T0564 000:814.557 JLINK_IsHalted()
T0564 000:814.722 - 0.178ms returns FALSE
T0564 000:814.743 JLINK_HasError()
T0564 000:816.556 JLINK_IsHalted()
T0564 000:816.722 - 0.173ms returns FALSE
T0564 000:816.737 JLINK_HasError()
T0564 000:818.558 JLINK_IsHalted()
T0564 000:818.720 - 0.169ms returns FALSE
T0564 000:818.735 JLINK_HasError()
T0564 000:820.560 JLINK_IsHalted()
T0564 000:822.078   CPU_ReadMem(2 bytes @ 0x20000000)
T0564 000:822.242 - 1.689ms returns TRUE
T0564 000:822.257 JLINK_ReadReg(R15 (PC))
T0564 000:822.272 - 0.020ms returns 0x20000000
T0564 000:822.285 JLINK_ClrBPEx(BPHandle = 0x00000008)
T0564 000:822.302 - 0.023ms returns 0x00
T0564 000:822.315 JLINK_ReadReg(R0)
T0564 000:822.327 - 0.018ms returns 0x00000000
T0564 000:822.753 JLINK_WriteMem(0x20000170, 0x290 Bytes, ...)
T0564 000:822.771   Data:  11 2F 00 90 01 DD 11 23 00 E0 3B 46 0C AA 03 A9 ...
T0564 000:822.796   CPU_WriteMem(656 bytes @ 0x20000170)
T0564 000:824.780 - 2.040ms returns 0x290
T0564 000:824.802 JLINK_WriteMem(0x20000400, 0x170 Bytes, ...)
T0564 000:824.815   Data:  7F 18 5E 41 00 28 06 D1 01 20 C0 07 82 42 02 D1 ...
T0564 000:824.837   CPU_WriteMem(368 bytes @ 0x20000400)
T0564 000:825.992 - 1.197ms returns 0x170
T0564 000:826.007 JLINK_HasError()
T0564 000:826.020 JLINK_WriteReg(R0, 0x08001000)
T0564 000:826.034 - 0.019ms returns 0
T0564 000:826.046 JLINK_WriteReg(R1, 0x00000400)
T0564 000:826.059 - 0.018ms returns 0
T0564 000:826.071 JLINK_WriteReg(R2, 0x20000170)
T0564 000:826.084 - 0.018ms returns 0
T0564 000:826.096 JLINK_WriteReg(R3, 0x00000000)
T0564 000:826.108 - 0.018ms returns 0
T0564 000:826.121 JLINK_WriteReg(R4, 0x00000000)
T0564 000:826.133 - 0.018ms returns 0
T0564 000:826.146 JLINK_WriteReg(R5, 0x00000000)
T0564 000:826.162 - 0.022ms returns 0
T0564 000:826.175 JLINK_WriteReg(R6, 0x00000000)
T0564 000:826.187 - 0.018ms returns 0
T0564 000:826.200 JLINK_WriteReg(R7, 0x00000000)
T0564 000:826.212 - 0.018ms returns 0
T0564 000:826.225 JLINK_WriteReg(R8, 0x00000000)
T0564 000:826.237 - 0.018ms returns 0
T0564 000:826.249 JLINK_WriteReg(R9, 0x2000016C)
T0564 000:826.261 - 0.018ms returns 0
T0564 000:826.274 JLINK_WriteReg(R10, 0x00000000)
T0564 000:826.286 - 0.018ms returns 0
T0564 000:826.299 JLINK_WriteReg(R11, 0x00000000)
T0564 000:826.311 - 0.018ms returns 0
T0564 000:826.324 JLINK_WriteReg(R12, 0x00000000)
T0564 000:826.336 - 0.018ms returns 0
T0564 000:826.348 JLINK_WriteReg(R13 (SP), 0x20001000)
T0564 000:826.361 - 0.018ms returns 0
T0564 000:826.373 JLINK_WriteReg(R14, 0x20000001)
T0564 000:826.386 - 0.018ms returns 0
T0564 000:826.398 JLINK_WriteReg(R15 (PC), 0x200000FA)
T0564 000:826.411 - 0.018ms returns 0
T0564 000:826.423 JLINK_WriteReg(XPSR, 0x01000000)
T0564 000:826.435 - 0.018ms returns 0
T0564 000:826.448 JLINK_WriteReg(MSP, 0x20001000)
T0564 000:826.460 - 0.018ms returns 0
T0564 000:826.473 JLINK_WriteReg(PSP, 0x20001000)
T0564 000:826.485 - 0.018ms returns 0
T0564 000:826.498 JLINK_WriteReg(CFBP, 0x00000000)
T0564 000:826.510 - 0.018ms returns 0
T0564 000:826.522 JLINK_SetBPEx(Addr = 0x20000000, Type = 0xFFFFFFF2)
T0564 000:826.535 - 0.018ms returns 0x00000009
T0564 000:826.548 JLINK_Go()
T0564 000:826.566   CPU_ReadMem(4 bytes @ 0xE0001000)
T0564 000:826.724   CPU_WriteMem(4 bytes @ 0xE0001000)
T0564 000:828.395 - 1.855ms
T0564 000:828.410 JLINK_IsHalted()
T0564 000:828.577 - 0.173ms returns FALSE
T0564 000:828.591 JLINK_HasError()
T0564 000:830.568 JLINK_IsHalted()
T0564 000:830.729 - 0.169ms returns FALSE
T0564 000:830.746 JLINK_HasError()
T0564 000:832.569 JLINK_IsHalted()
T0564 000:832.725 - 0.162ms returns FALSE
T0564 000:832.739 JLINK_HasError()
T0564 000:834.571 JLINK_IsHalted()
T0564 000:834.775 - 0.212ms returns FALSE
T0564 000:834.791 JLINK_HasError()
T0564 000:836.572 JLINK_IsHalted()
T0564 000:836.729 - 0.163ms returns FALSE
T0564 000:836.743 JLINK_HasError()
T0564 000:838.574 JLINK_IsHalted()
T0564 000:838.726 - 0.158ms returns FALSE
T0564 000:838.740 JLINK_HasError()
T0564 000:840.574 JLINK_IsHalted()
T0564 000:840.761 - 0.194ms returns FALSE
T0564 000:840.775 JLINK_HasError()
T0564 000:842.580 JLINK_IsHalted()
T0564 000:842.739 - 0.165ms returns FALSE
T0564 000:842.753 JLINK_HasError()
T0564 000:844.583 JLINK_IsHalted()
T0564 000:844.745 - 0.170ms returns FALSE
T0564 000:844.759 JLINK_HasError()
T0564 000:846.581 JLINK_IsHalted()
T0564 000:846.736 - 0.162ms returns FALSE
T0564 000:846.750 JLINK_HasError()
T0564 000:848.581 JLINK_IsHalted()
T0564 000:848.731 - 0.155ms returns FALSE
T0564 000:848.744 JLINK_HasError()
T0564 000:850.588 JLINK_IsHalted()
T0564 000:850.752 - 0.173ms returns FALSE
T0564 000:850.770 JLINK_HasError()
T0564 000:852.589 JLINK_IsHalted()
T0564 000:852.749 - 0.166ms returns FALSE
T0564 000:852.764 JLINK_HasError()
T0564 000:854.588 JLINK_IsHalted()
T0564 000:854.734 - 0.152ms returns FALSE
T0564 000:854.748 JLINK_HasError()
T0564 000:856.589 JLINK_IsHalted()
T0564 000:856.742 - 0.160ms returns FALSE
T0564 000:856.756 JLINK_HasError()
T0564 000:858.592 JLINK_IsHalted()
T0564 000:860.074   CPU_ReadMem(2 bytes @ 0x20000000)
T0564 000:860.227 - 1.642ms returns TRUE
T0564 000:860.242 JLINK_ReadReg(R15 (PC))
T0564 000:860.255 - 0.019ms returns 0x20000000
T0564 000:860.268 JLINK_ClrBPEx(BPHandle = 0x00000009)
T0564 000:860.280 - 0.018ms returns 0x00
T0564 000:860.293 JLINK_ReadReg(R0)
T0564 000:860.305 - 0.018ms returns 0x00000000
T0564 000:860.742 JLINK_WriteMem(0x20000170, 0x290 Bytes, ...)
T0564 000:860.761   Data:  7A 19 10 18 08 1A A0 61 20 78 C0 06 02 D4 20 46 ...
T0564 000:860.784   CPU_WriteMem(656 bytes @ 0x20000170)
T0564 000:862.766 - 2.036ms returns 0x290
T0564 000:862.787 JLINK_WriteMem(0x20000400, 0x170 Bytes, ...)
T0564 000:862.800   Data:  FA E7 62 68 28 78 A1 68 6D 1C 90 47 76 1E F8 D2 ...
T0564 000:862.822   CPU_WriteMem(368 bytes @ 0x20000400)
T0564 000:863.989 - 1.208ms returns 0x170
T0564 000:864.004 JLINK_HasError()
T0564 000:864.017 JLINK_WriteReg(R0, 0x08001400)
T0564 000:864.030 - 0.019ms returns 0
T0564 000:864.043 JLINK_WriteReg(R1, 0x00000400)
T0564 000:864.055 - 0.018ms returns 0
T0564 000:864.067 JLINK_WriteReg(R2, 0x20000170)
T0564 000:864.080 - 0.018ms returns 0
T0564 000:864.092 JLINK_WriteReg(R3, 0x00000000)
T0564 000:864.104 - 0.018ms returns 0
T0564 000:864.117 JLINK_WriteReg(R4, 0x00000000)
T0564 000:864.130 - 0.018ms returns 0
T0564 000:864.142 JLINK_WriteReg(R5, 0x00000000)
T0564 000:864.155 - 0.018ms returns 0
T0564 000:864.167 JLINK_WriteReg(R6, 0x00000000)
T0564 000:864.179 - 0.018ms returns 0
T0564 000:864.192 JLINK_WriteReg(R7, 0x00000000)
T0564 000:864.204 - 0.018ms returns 0
T0564 000:864.217 JLINK_WriteReg(R8, 0x00000000)
T0564 000:864.229 - 0.018ms returns 0
T0564 000:864.241 JLINK_WriteReg(R9, 0x2000016C)
T0564 000:864.253 - 0.018ms returns 0
T0564 000:864.266 JLINK_WriteReg(R10, 0x00000000)
T0564 000:864.278 - 0.018ms returns 0
T0564 000:864.291 JLINK_WriteReg(R11, 0x00000000)
T0564 000:864.303 - 0.018ms returns 0
T0564 000:864.316 JLINK_WriteReg(R12, 0x00000000)
T0564 000:864.328 - 0.018ms returns 0
T0564 000:864.341 JLINK_WriteReg(R13 (SP), 0x20001000)
T0564 000:864.353 - 0.018ms returns 0
T0564 000:864.366 JLINK_WriteReg(R14, 0x20000001)
T0564 000:864.378 - 0.018ms returns 0
T0564 000:864.390 JLINK_WriteReg(R15 (PC), 0x200000FA)
T0564 000:864.403 - 0.018ms returns 0
T0564 000:864.415 JLINK_WriteReg(XPSR, 0x01000000)
T0564 000:864.427 - 0.018ms returns 0
T0564 000:864.440 JLINK_WriteReg(MSP, 0x20001000)
T0564 000:864.452 - 0.018ms returns 0
T0564 000:864.465 JLINK_WriteReg(PSP, 0x20001000)
T0564 000:864.477 - 0.018ms returns 0
T0564 000:864.490 JLINK_WriteReg(CFBP, 0x00000000)
T0564 000:864.502 - 0.018ms returns 0
T0564 000:864.515 JLINK_SetBPEx(Addr = 0x20000000, Type = 0xFFFFFFF2)
T0564 000:864.528 - 0.018ms returns 0x0000000A
T0564 000:864.541 JLINK_Go()
T0564 000:864.558   CPU_ReadMem(4 bytes @ 0xE0001000)
T0564 000:864.710   CPU_WriteMem(4 bytes @ 0xE0001000)
T0564 000:866.400 - 1.867ms
T0564 000:866.416 JLINK_IsHalted()
T0564 000:866.581 - 0.171ms returns FALSE
T0564 000:866.597 JLINK_HasError()
T0564 000:868.601 JLINK_IsHalted()
T0564 000:868.762 - 0.167ms returns FALSE
T0564 000:868.776 JLINK_HasError()
T0564 000:870.604 JLINK_IsHalted()
T0564 000:870.768 - 0.172ms returns FALSE
T0564 000:870.784 JLINK_HasError()
T0564 000:872.605 JLINK_IsHalted()
T0564 000:872.762 - 0.164ms returns FALSE
T0564 000:872.777 JLINK_HasError()
T0564 000:874.619 JLINK_IsHalted()
T0564 000:874.786 - 0.173ms returns FALSE
T0564 000:874.801 JLINK_HasError()
T0564 000:876.608 JLINK_IsHalted()
T0564 000:876.766 - 0.164ms returns FALSE
T0564 000:876.780 JLINK_HasError()
T0564 000:878.610 JLINK_IsHalted()
T0564 000:878.760 - 0.156ms returns FALSE
T0564 000:878.774 JLINK_HasError()
T0564 000:880.615 JLINK_IsHalted()
T0564 000:880.781 - 0.173ms returns FALSE
T0564 000:880.796 JLINK_HasError()
T0564 000:882.614 JLINK_IsHalted()
T0564 000:882.769 - 0.161ms returns FALSE
T0564 000:882.782 JLINK_HasError()
T0564 000:884.615 JLINK_IsHalted()
T0564 000:884.763 - 0.154ms returns FALSE
T0564 000:884.777 JLINK_HasError()
T0564 000:886.616 JLINK_IsHalted()
T0564 000:886.769 - 0.159ms returns FALSE
T0564 000:886.783 JLINK_HasError()
T0564 000:888.620 JLINK_IsHalted()
T0564 000:888.782 - 0.169ms returns FALSE
T0564 000:888.797 JLINK_HasError()
T0564 000:890.621 JLINK_IsHalted()
T0564 000:890.837 - 0.223ms returns FALSE
T0564 000:890.851 JLINK_HasError()
T0564 000:892.626 JLINK_IsHalted()
T0564 000:892.787 - 0.168ms returns FALSE
T0564 000:892.801 JLINK_HasError()
T0564 000:894.624 JLINK_IsHalted()
T0564 000:894.797 - 0.185ms returns FALSE
T0564 000:894.817 JLINK_HasError()
T0564 000:896.627 JLINK_IsHalted()
T0564 000:898.080   CPU_ReadMem(2 bytes @ 0x20000000)
T0564 000:898.231 - 1.611ms returns TRUE
T0564 000:898.245 JLINK_ReadReg(R15 (PC))
T0564 000:898.259 - 0.019ms returns 0x20000000
T0564 000:898.272 JLINK_ClrBPEx(BPHandle = 0x0000000A)
T0564 000:898.284 - 0.018ms returns 0x00
T0564 000:898.297 JLINK_ReadReg(R0)
T0564 000:898.309 - 0.018ms returns 0x00000000
T0564 000:898.697 JLINK_WriteMem(0x20000170, 0x290 Bytes, ...)
T0564 000:898.716   Data:  00 91 01 90 A8 68 A1 68 06 F0 E1 FD 02 91 03 90 ...
T0564 000:898.738   CPU_WriteMem(656 bytes @ 0x20000170)
T0564 000:900.732 - 2.041ms returns 0x290
T0564 000:900.746 JLINK_WriteMem(0x20000400, 0x170 Bytes, ...)
T0564 000:900.759   Data:  6B 40 42 40 13 43 03 D0 01 43 03 D0 01 20 02 E0 ...
T0564 000:900.778   CPU_WriteMem(368 bytes @ 0x20000400)
T0564 000:901.954 - 1.215ms returns 0x170
